
T46EC 002:296 SEGGER J-Link V6.32i Log File (0001ms, 0011ms total)
T46EC 002:296 DLL Compiled: Jul 24 2018 15:19:55 (0001ms, 0011ms total)
T46EC 002:296 Logging started @ 2019-05-21 22:52 (0001ms, 0011ms total)
T46EC 002:297 JLINK_SetWarnOutHandler(...) (0000ms, 0011ms total)
T46EC 002:297 JLINK_OpenEx(...)
Firmware: J-Link V9 compiled Oct  6 2017 16:38:28
Hardware: V9.40
S/N: 59401772
Feature(s): GDB, RDI, FlashBP, FlashDL, JFlash, RDDI
TELNET listener socket opened on port 19021WEBSRV 
Starting webserver (1386ms, 1397ms total)
T46EC 002:297 WEBSRV Webserver running on local port 19081 (1387ms, 1398ms total)
T46EC 002:297   returns O.K. (1387ms, 1398ms total)
T46EC 003:684 JLINK_GetEmuCaps()  returns 0xB9FF7BBF (0000ms, 1398ms total)
T46EC 003:684 JLINK_TIF_GetAvailable(...) (0001ms, 1399ms total)
T46EC 003:685 JLINK_SetErrorOutHandler(...) (0000ms, 1399ms total)
T46EC 003:685 JLINK_ExecCommand("ProjectFile = "D:\OneDrive - The Ohio State University\RoboMaster\OSU_RoboMaster_Embeded\RM Standard Robot Open Source Code\standard\Project\JLinkSettings.ini"", ...).   returns 0x00 (0008ms, 1407ms total)
T46EC 003:724 JLINK_ExecCommand("Device = STM32F427IIHx", ...). Device "STM32F427II" selected.  returns 0x00 (0017ms, 1424ms total)
T46EC 003:741 JLINK_ExecCommand("DisableConnectionTimeout", ...).   returns 0x01 (0000ms, 1424ms total)
T46EC 003:741 JLINK_GetHardwareVersion()  returns 0x16F30 (0000ms, 1424ms total)
T46EC 003:741 JLINK_GetDLLVersion()  returns 63209 (0000ms, 1424ms total)
T46EC 003:741 JLINK_GetFirmwareString(...) (0000ms, 1424ms total)
T46EC 003:954 JLINK_GetDLLVersion()  returns 63209 (0000ms, 1424ms total)
T46EC 003:954 JLINK_GetCompileDateTime() (0000ms, 1424ms total)
T46EC 003:988 JLINK_GetFirmwareString(...) (0000ms, 1424ms total)
T46EC 003:998 JLINK_GetHardwareVersion()  returns 0x16F30 (0000ms, 1424ms total)
T46EC 004:098 JLINK_TIF_Select(JLINKARM_TIF_SWD)  returns 0x00 (0001ms, 1425ms total)
T46EC 004:099 JLINK_SetSpeed(50000) (0000ms, 1425ms total)
T46EC 004:099 JLINK_GetId() >0x10B TIF> >0x10F TIF>RESET (pin 15) high, but should be low. Please check target hardware. >0x10B TIF> >0x10F TIF> >0x10B TIF>Found SW-DP with ID 0x2BA01477 >0x0D TIF> >0x28 TIF> >0x0D TIF> >0x28 TIF>SWD speed too high. Reduced from 12000 kHz to 8100 kHz for stability >0x0D TIF> >0x28 TIF> >0x0D TIF> >0x28 TIF> >0x0D TIF> >0x21 TIF> >0x0D TIF> >0x28 TIF> >0x0D TIF> >0x28 TIF> >0x0D TIF> >0x28 TIF> >0x0D TIF> >0x21 TIF> >0x0D TIF> >0x21 TIF> >0x0D TIF> >0x28 TIF> >0x0D TIF>
 >0x21 TIF> >0x0D TIF> >0x21 TIF> >0x0D TIF> >0x28 TIF> >0x0D TIF> >0x21 TIF> >0x0D TIF> >0x21 TIF> >0x0D TIF> >0x28 TIF> >0x0D TIF> >0x21 TIF> >0x0D TIF> >0x21 TIF> >0x0D TIF> >0x28 TIF> >0x0D TIF> >0x21 TIF> >0x0D TIF> >0x21 TIF> >0x0D TIF> >0x28 TIF> >0x0D TIF> >0x21 TIF> >0x0D TIF> >0x21 TIF> >0x0D TIF> >0x28 TIF> >0x0D TIF> >0x21 TIF> >0x0D TIF> >0x21 TIF> >0x10B TIF>Found SW-DP with ID 0x2BA01477 >0x0D TIF> >0x28 TIF> >0x0D TIF> >0x28 TIF> >0x0D TIF> >0x28 TIF> >0x0D TIF> >0x28 TIF> >0x0D TIF>
 >0x21 TIF> >0x0D TIF> >0x28 TIF>Scanning AP map to find all available APs >0x0D TIF> >0x28 TIF> >0x0D TIF> >0x21 TIF> >0x0D TIF> >0x21 TIF> >0x0D TIF> >0x28 TIF> >0x0D TIF> >0x21 TIF> >0x0D TIF> >0x21 TIF>AP[1]: Stopped AP scan as end of AP map has been reachedAP[0]: AHB-AP (IDR: 0x24770011)Iterating through AP map to find AHB-AP to use >0x42 TIF> >0x28 TIF> >0x0D TIF> >0x28 TIF> >0x0D TIF> >0x21 TIF> >0x0D TIF> >0x21 TIF> >0x42 TIF> >0x28 TIF> >0x0D TIF> >0x28 TIF> >0x0D TIF> >0x28 TIF> >0x0D TIF>
 >0x21 TIF> >0x0D TIF> >0x21 TIF>AP[0]: Core foundAP[0]: AHB-AP ROM base: 0xE00FF000 >0x0D TIF> >0x28 TIF> >0x0D TIF> >0x28 TIF> >0x0D TIF> >0x28 TIF> >0x0D TIF> >0x21 TIF> >0x0D TIF> >0x21 TIF>CPUID register: 0x410FC241. Implementer code: 0x41 (ARM)Found Cortex-M4 r0p1, Little endian. -- Max. mem block: 0x000110C0 -- CPU_ReadMem(4 bytes @ 0xE000EDF0) -- CPU_WriteMem(4 bytes @ 0xE000EDF0) -- CPU_ReadMem(4 bytes @ 0xE0002000)FPUnit: 6 code (BP) slots and 2 literal slots
 -- CPU_ReadMem(4 bytes @ 0xE000EDFC) -- CPU_WriteMem(4 bytes @ 0xE000EDFC) -- CPU_ReadMem(4 bytes @ 0xE0001000) -- CPU_WriteMem(4 bytes @ 0xE0001000) -- CPU_ReadMem(4 bytes @ 0xE000ED88) -- CPU_WriteMem(4 bytes @ 0xE000ED88) -- CPU_ReadMem(4 bytes @ 0xE000ED88) -- CPU_WriteMem(4 bytes @ 0xE000ED88)CoreSight components:ROMTbl[0] @ E00FF000 -- CPU_ReadMem(16 bytes @ 0xE00FF000) -- CPU_ReadMem(16 bytes @ 0xE000EFF0) -- CPU_ReadMem(16 bytes @ 0xE000EFE0)
ROMTbl[0][0]: E000E000, CID: B105E00D, PID: 000BB00C SCS-M7 -- CPU_ReadMem(16 bytes @ 0xE0001FF0) -- CPU_ReadMem(16 bytes @ 0xE0001FE0)ROMTbl[0][1]: E0001000, CID: B105E00D, PID: 003BB002 DWT -- CPU_ReadMem(16 bytes @ 0xE0002FF0) -- CPU_ReadMem(16 bytes @ 0xE0002FE0)ROMTbl[0][2]: E0002000, CID: B105E00D, PID: 002BB003 FPB -- CPU_ReadMem(16 bytes @ 0xE0000FF0) -- CPU_ReadMem(16 bytes @ 0xE0000FE0)ROMTbl[0][3]: E0000000, CID: B105E00D, PID: 003BB001 ITM -- CPU_ReadMem(16 bytes @ 0xE00FF010)
 -- CPU_ReadMem(16 bytes @ 0xE0040FF0) -- CPU_ReadMem(16 bytes @ 0xE0040FE0)ROMTbl[0][4]: E0040000, CID: B105900D, PID: 000BB9A1 TPIU -- CPU_ReadMem(16 bytes @ 0xE0041FF0) -- CPU_ReadMem(16 bytes @ 0xE0041FE0)ROMTbl[0][5]: E0041000, CID: B105900D, PID: 000BB925 ETM >0x0D TIF> >0x21 TIF>  returns 0x2BA01477 (0832ms, 2257ms total)
T46EC 004:931 JLINK_GetDLLVersion()  returns 63209 (0000ms, 2257ms total)
T46EC 004:932 JLINK_CORE_GetFound()  returns 0xE0000FF (0000ms, 2257ms total)
T46EC 004:932 JLINK_GetDebugInfo(0x100 = JLINKARM_ROM_TABLE_ADDR_INDEX) -- Value=0xE00FF000  returns 0x00 (0000ms, 2257ms total)
T46EC 004:948 JLINK_GetDebugInfo(0x100 = JLINKARM_ROM_TABLE_ADDR_INDEX) -- Value=0xE00FF000  returns 0x00 (0000ms, 2257ms total)
T46EC 004:949 JLINK_GetDebugInfo(0x101 = JLINKARM_DEBUG_INFO_ETM_ADDR_INDEX) -- Value=0xE0041000  returns 0x00 (0000ms, 2257ms total)
T46EC 004:949 JLINK_ReadMemEx(0xE0041FD0, 0x0020 Bytes, ..., Flags = 0x02000004) -- CPU_ReadMem(32 bytes @ 0xE0041FD0) - Data: 04 00 00 00 00 00 00 00 00 00 00 00 00 00 00 00 ...  returns 0x20 (0001ms, 2258ms total)
T46EC 004:950 JLINK_GetDebugInfo(0x102 = JLINKARM_DEBUG_INFO_MTB_ADDR_INDEX) -- Value=0x00000000  returns 0x00 (0000ms, 2258ms total)
T46EC 004:950 JLINK_GetDebugInfo(0x103 = JLINKARM_DEBUG_INFO_TPIU_ADDR_INDEX) -- Value=0xE0040000  returns 0x00 (0000ms, 2258ms total)
T46EC 004:950 JLINK_GetDebugInfo(0x104 = JLINKARM_DEBUG_INFO_ITM_ADDR_INDEX) -- Value=0xE0000000  returns 0x00 (0000ms, 2258ms total)
T46EC 004:950 JLINK_GetDebugInfo(0x105 = JLINKARM_DEBUG_INFO_DWT_ADDR_INDEX) -- Value=0xE0001000  returns 0x00 (0000ms, 2258ms total)
T46EC 004:950 JLINK_GetDebugInfo(0x106 = JLINKARM_DEBUG_INFO_FPB_ADDR_INDEX) -- Value=0xE0002000  returns 0x00 (0000ms, 2258ms total)
T46EC 004:950 JLINK_GetDebugInfo(0x107 = JLINKARM_DEBUG_INFO_NVIC_ADDR_INDEX) -- Value=0xE000E000  returns 0x00 (0000ms, 2258ms total)
T46EC 004:950 JLINK_GetDebugInfo(0x10C = JLINKARM_DEBUG_INFO_DBG_ADDR_INDEX) -- Value=0xE000EDF0  returns 0x00 (0000ms, 2258ms total)
T46EC 004:950 JLINK_GetDebugInfo(0x01 = Unknown) -- Value=0x00000001  returns 0x00 (0000ms, 2258ms total)
T46EC 004:950 JLINK_ReadMemU32(0xE000ED00, 0x0001 Items, ...) -- CPU_ReadMem(4 bytes @ 0xE000ED00) - Data: 41 C2 0F 41  returns 0x01 (0000ms, 2258ms total)
T46EC 004:950 JLINK_GetDebugInfo(0x10F = JLINKARM_DEBUG_INFO_HAS_CORTEX_M_SECURITY_EXT_INDEX) -- Value=0x00000000  returns 0x00 (0000ms, 2258ms total)
T46EC 004:951 JLINK_SetResetType(JLINKARM_CM3_RESET_TYPE_NORMAL)  returns JLINKARM_CM3_RESET_TYPE_NORMAL (0000ms, 2258ms total)
T46EC 004:951 JLINK_Reset() -- CPU is running -- CPU_WriteMem(4 bytes @ 0xE000EDF0) -- CPU is running -- CPU_WriteMem(4 bytes @ 0xE000EDFC)Reset: Halt core after reset via DEMCR.VC_CORERESET. >0x35 TIF>Reset: Reset device via AIRCR.SYSRESETREQ. -- CPU is running -- CPU_WriteMem(4 bytes @ 0xE000ED0C) >0x0D TIF> >0x28 TIF> -- CPU_ReadMem(4 bytes @ 0xE000EDF0) -- CPU_ReadMem(4 bytes @ 0xE000EDF0) -- CPU is running -- CPU_WriteMem(4 bytes @ 0xE000EDF0) -- CPU is running -- CPU_WriteMem(4 bytes @ 0xE000EDFC)
 -- CPU_ReadMem(4 bytes @ 0xE000EDF0) -- CPU_WriteMem(4 bytes @ 0xE0002000) -- CPU_ReadMem(4 bytes @ 0xE000EDFC) -- CPU_ReadMem(4 bytes @ 0xE0001000) (0090ms, 2348ms total)
T46EC 005:041 JLINK_Halt()  returns 0x00 (0000ms, 2348ms total)
T46EC 005:041 JLINK_ReadMemU32(0xE000EDF0, 0x0001 Items, ...) -- CPU_ReadMem(4 bytes @ 0xE000EDF0) - Data: 03 00 03 00  returns 0x01 (0001ms, 2349ms total)
T46EC 005:042 JLINK_WriteU32(0xE000EDF0, 0xA05F0003) -- CPU_WriteMem(4 bytes @ 0xE000EDF0)  returns 0x00 (0000ms, 2349ms total)
T46EC 005:042 JLINK_WriteU32(0xE000EDFC, 0x01000000) -- CPU_WriteMem(4 bytes @ 0xE000EDFC)  returns 0x00 (0000ms, 2349ms total)
T46EC 005:117 JLINK_GetHWStatus(...)  returns 0x00 (0000ms, 2349ms total)
T46EC 005:152 JLINK_GetNumBPUnits(Type = 0xFFFFFF00)  returns 0x06 (0000ms, 2349ms total)
T46EC 005:152 JLINK_GetNumBPUnits(Type = 0xF0)  returns 0x2000 (0000ms, 2349ms total)
T46EC 005:152 JLINK_GetNumWPUnits()  returns 0x04 (0000ms, 2349ms total)
T46EC 005:194 JLINK_GetSpeed()  returns 0x1770 (0000ms, 2349ms total)
T46EC 005:228 JLINK_ReadMemU32(0xE000E004, 0x0001 Items, ...) -- CPU_ReadMem(4 bytes @ 0xE000E004) - Data: 02 00 00 00  returns 0x01 (0001ms, 2350ms total)
T46EC 005:229 JLINK_ReadMemU32(0xE000E004, 0x0001 Items, ...) -- CPU_ReadMem(4 bytes @ 0xE000E004) - Data: 02 00 00 00  returns 0x01 (0000ms, 2350ms total)
T46EC 005:229 JLINK_WriteMemEx(0xE0001000, 0x001C Bytes, ..., Flags = 0x02000004) - Data: 01 00 00 00 00 00 00 00 00 00 00 00 00 00 00 00 ... -- CPU_WriteMem(28 bytes @ 0xE0001000)  returns 0x1C (0002ms, 2352ms total)
T46EC 005:231 JLINK_Halt()  returns 0x00 (0000ms, 2352ms total)
T46EC 005:231 JLINK_IsHalted()  returns TRUE (0000ms, 2352ms total)
T46EC 005:241 JLINK_WriteMem(0x20000000, 0x0198 Bytes, ...) - Data: 00 BE 0A E0 0D 78 2D 06 68 40 08 24 40 00 00 D3 ... -- CPU_WriteMem(408 bytes @ 0x20000000)  returns 0x198 (0003ms, 2355ms total)
T46EC 005:244 JLINK_WriteReg(R0, 0x08000000)  returns 0x00 (0000ms, 2355ms total)
T46EC 005:244 JLINK_WriteReg(R1, 0x00B71B00)  returns 0x00 (0000ms, 2355ms total)
T46EC 005:245 JLINK_WriteReg(R2, 0x00000001)  returns 0x00 (0000ms, 2355ms total)
T46EC 005:245 JLINK_WriteReg(R3, 0x00000000)  returns 0x00 (0000ms, 2355ms total)
T46EC 005:245 JLINK_WriteReg(R4, 0x00000000)  returns 0x00 (0000ms, 2355ms total)
T46EC 005:245 JLINK_WriteReg(R5, 0x00000000)  returns 0x00 (0000ms, 2355ms total)
T46EC 005:245 JLINK_WriteReg(R6, 0x00000000)  returns 0x00 (0000ms, 2355ms total)
T46EC 005:245 JLINK_WriteReg(R7, 0x00000000)  returns 0x00 (0000ms, 2355ms total)
T46EC 005:245 JLINK_WriteReg(R8, 0x00000000)  returns 0x00 (0000ms, 2355ms total)
T46EC 005:245 JLINK_WriteReg(R9, 0x20000194)  returns 0x00 (0000ms, 2355ms total)
T46EC 005:245 JLINK_WriteReg(R10, 0x00000000)  returns 0x00 (0000ms, 2355ms total)
T46EC 005:245 JLINK_WriteReg(R11, 0x00000000)  returns 0x00 (0000ms, 2355ms total)
T46EC 005:245 JLINK_WriteReg(R12, 0x00000000)  returns 0x00 (0000ms, 2355ms total)
T46EC 005:245 JLINK_WriteReg(R13 (SP), 0x20001000)  returns 0x00 (0000ms, 2355ms total)
T46EC 005:245 JLINK_WriteReg(R14, 0x20000001)  returns 0x00 (0000ms, 2355ms total)
T46EC 005:245 JLINK_WriteReg(R15 (PC), 0x2000005E)  returns 0x00 (0000ms, 2355ms total)
T46EC 005:245 JLINK_WriteReg(XPSR, 0x01000000)  returns 0x00 (0000ms, 2355ms total)
T46EC 005:245 JLINK_WriteReg(MSP, 0x20001000)  returns 0x00 (0000ms, 2355ms total)
T46EC 005:245 JLINK_WriteReg(PSP, 0x20001000)  returns 0x00 (0000ms, 2355ms total)
T46EC 005:245 JLINK_WriteReg(CFBP, 0x00000000)  returns 0x00 (0000ms, 2355ms total)
T46EC 005:245 JLINK_SetBPEx(Addr = 0x20000000, Type = 0xFFFFFFF2) -- CPU_ReadMem(2 bytes @ 0x20000000)  returns 0x00000001 (0001ms, 2356ms total)
T46EC 005:246 JLINK_Go() -- CPU_WriteMem(2 bytes @ 0x20000000) -- CPU_ReadMem(4 bytes @ 0xE0001000) -- CPU_WriteMem(4 bytes @ 0xE0002008) -- CPU_WriteMem(4 bytes @ 0xE000200C) -- CPU_WriteMem(4 bytes @ 0xE0002010) -- CPU_WriteMem(4 bytes @ 0xE0002014) -- CPU_WriteMem(4 bytes @ 0xE0002018) -- CPU_WriteMem(4 bytes @ 0xE000201C) -- CPU_WriteMem(4 bytes @ 0xE0001004) (0003ms, 2359ms total)
T46EC 005:249 JLINK_IsHalted() -- CPU_ReadMem(2 bytes @ 0x20000000)  returns TRUE (0003ms, 2362ms total)
T46EC 005:252 JLINK_ReadReg(R15 (PC))  returns 0x20000000 (0000ms, 2359ms total)
T46EC 005:252 JLINK_ClrBPEx(BPHandle = 0x00000001)  returns 0x00 (0000ms, 2359ms total)
T46EC 005:252 JLINK_ReadReg(R0)  returns 0x00000000 (0000ms, 2359ms total)
T46EC 005:255 JLINK_WriteReg(R0, 0x08000000)  returns 0x00 (0000ms, 2359ms total)
T46EC 005:255 JLINK_WriteReg(R1, 0x00004000)  returns 0x00 (0000ms, 2359ms total)
T46EC 005:255 JLINK_WriteReg(R2, 0x000000FF)  returns 0x00 (0000ms, 2359ms total)
T46EC 005:255 JLINK_WriteReg(R3, 0x00000000)  returns 0x00 (0000ms, 2359ms total)
T46EC 005:255 JLINK_WriteReg(R4, 0x00000000)  returns 0x00 (0000ms, 2359ms total)
T46EC 005:255 JLINK_WriteReg(R5, 0x00000000)  returns 0x00 (0000ms, 2359ms total)
T46EC 005:255 JLINK_WriteReg(R6, 0x00000000)  returns 0x00 (0000ms, 2359ms total)
T46EC 005:255 JLINK_WriteReg(R7, 0x00000000)  returns 0x00 (0000ms, 2359ms total)
T46EC 005:255 JLINK_WriteReg(R8, 0x00000000)  returns 0x00 (0000ms, 2359ms total)
T46EC 005:255 JLINK_WriteReg(R9, 0x20000194)  returns 0x00 (0000ms, 2359ms total)
T46EC 005:255 JLINK_WriteReg(R10, 0x00000000)  returns 0x00 (0000ms, 2359ms total)
T46EC 005:255 JLINK_WriteReg(R11, 0x00000000)  returns 0x00 (0000ms, 2359ms total)
T46EC 005:255 JLINK_WriteReg(R12, 0x00000000)  returns 0x00 (0000ms, 2359ms total)
T46EC 005:255 JLINK_WriteReg(R13 (SP), 0x20001000)  returns 0x00 (0000ms, 2359ms total)
T46EC 005:255 JLINK_WriteReg(R14, 0x20000001)  returns 0x00 (0001ms, 2360ms total)
T46EC 005:256 JLINK_WriteReg(R15 (PC), 0x20000020)  returns 0x00 (0000ms, 2360ms total)
T46EC 005:256 JLINK_WriteReg(XPSR, 0x01000000)  returns 0x00 (0000ms, 2360ms total)
T46EC 005:256 JLINK_WriteReg(MSP, 0x20001000)  returns 0x00 (0000ms, 2360ms total)
T46EC 005:256 JLINK_WriteReg(PSP, 0x20001000)  returns 0x00 (0000ms, 2360ms total)
T46EC 005:256 JLINK_WriteReg(CFBP, 0x00000000)  returns 0x00 (0000ms, 2360ms total)
T46EC 005:256 JLINK_SetBPEx(Addr = 0x20000000, Type = 0xFFFFFFF2)  returns 0x00000002 (0000ms, 2360ms total)
T46EC 005:256 JLINK_Go() -- CPU_ReadMem(4 bytes @ 0xE0001000) (0001ms, 2361ms total)
T46EC 005:257 JLINK_IsHalted()  returns FALSE (0001ms, 2362ms total)
T46EC 005:971 JLINK_IsHalted() -- CPU_ReadMem(2 bytes @ 0x20000000)  returns TRUE (0002ms, 2363ms total)
T46EC 005:973 JLINK_ReadReg(R15 (PC))  returns 0x20000000 (0000ms, 2361ms total)
T46EC 005:973 JLINK_ClrBPEx(BPHandle = 0x00000002)  returns 0x00 (0000ms, 2361ms total)
T46EC 005:973 JLINK_ReadReg(R0)  returns 0x00000000 (0000ms, 2361ms total)
T46EC 005:975 JLINK_WriteReg(R0, 0x08004000)  returns 0x00 (0000ms, 2361ms total)
T46EC 005:975 JLINK_WriteReg(R1, 0x00004000)  returns 0x00 (0000ms, 2361ms total)
T46EC 005:975 JLINK_WriteReg(R2, 0x000000FF)  returns 0x00 (0000ms, 2361ms total)
T46EC 005:975 JLINK_WriteReg(R3, 0x00000000)  returns 0x00 (0000ms, 2361ms total)
T46EC 005:975 JLINK_WriteReg(R4, 0x00000000)  returns 0x00 (0000ms, 2361ms total)
T46EC 005:975 JLINK_WriteReg(R5, 0x00000000)  returns 0x00 (0000ms, 2361ms total)
T46EC 005:975 JLINK_WriteReg(R6, 0x00000000)  returns 0x00 (0000ms, 2361ms total)
T46EC 005:975 JLINK_WriteReg(R7, 0x00000000)  returns 0x00 (0000ms, 2361ms total)
T46EC 005:975 JLINK_WriteReg(R8, 0x00000000)  returns 0x00 (0000ms, 2361ms total)
T46EC 005:975 JLINK_WriteReg(R9, 0x20000194)  returns 0x00 (0000ms, 2361ms total)
T46EC 005:975 JLINK_WriteReg(R10, 0x00000000)  returns 0x00 (0000ms, 2361ms total)
T46EC 005:975 JLINK_WriteReg(R11, 0x00000000)  returns 0x00 (0000ms, 2361ms total)
T46EC 005:975 JLINK_WriteReg(R12, 0x00000000)  returns 0x00 (0000ms, 2361ms total)
T46EC 005:975 JLINK_WriteReg(R13 (SP), 0x20001000)  returns 0x00 (0000ms, 2361ms total)
T46EC 005:975 JLINK_WriteReg(R14, 0x20000001)  returns 0x00 (0000ms, 2361ms total)
T46EC 005:975 JLINK_WriteReg(R15 (PC), 0x20000020)  returns 0x00 (0000ms, 2361ms total)
T46EC 005:975 JLINK_WriteReg(XPSR, 0x01000000)  returns 0x00 (0000ms, 2361ms total)
T46EC 005:975 JLINK_WriteReg(MSP, 0x20001000)  returns 0x00 (0000ms, 2361ms total)
T46EC 005:975 JLINK_WriteReg(PSP, 0x20001000)  returns 0x00 (0000ms, 2361ms total)
T46EC 005:975 JLINK_WriteReg(CFBP, 0x00000000)  returns 0x00 (0000ms, 2361ms total)
T46EC 005:975 JLINK_SetBPEx(Addr = 0x20000000, Type = 0xFFFFFFF2)  returns 0x00000003 (0000ms, 2361ms total)
T46EC 005:975 JLINK_Go() -- CPU_ReadMem(4 bytes @ 0xE0001000) (0002ms, 2363ms total)
T46EC 005:977 JLINK_IsHalted()  returns FALSE (0000ms, 2363ms total)
T46EC 005:979 JLINK_IsHalted()  returns FALSE (0000ms, 2363ms total)
T46EC 005:981 JLINK_IsHalted()  returns FALSE (0000ms, 2363ms total)
T46EC 005:983 JLINK_IsHalted()  returns FALSE (0000ms, 2363ms total)
T46EC 005:985 JLINK_IsHalted()  returns FALSE (0000ms, 2363ms total)
T46EC 005:988 JLINK_IsHalted()  returns FALSE (0000ms, 2363ms total)
T46EC 005:990 JLINK_IsHalted()  returns FALSE (0000ms, 2363ms total)
T46EC 005:992 JLINK_IsHalted() -- CPU_ReadMem(2 bytes @ 0x20000000)  returns TRUE (0002ms, 2365ms total)
T46EC 005:994 JLINK_ReadReg(R15 (PC))  returns 0x20000000 (0000ms, 2363ms total)
T46EC 005:994 JLINK_ClrBPEx(BPHandle = 0x00000003)  returns 0x00 (0000ms, 2363ms total)
T46EC 005:994 JLINK_ReadReg(R0)  returns 0x00000000 (0000ms, 2363ms total)
T46EC 005:995 JLINK_WriteReg(R0, 0x08008000)  returns 0x00 (0001ms, 2364ms total)
T46EC 005:996 JLINK_WriteReg(R1, 0x00004000)  returns 0x00 (0000ms, 2364ms total)
T46EC 005:996 JLINK_WriteReg(R2, 0x000000FF)  returns 0x00 (0000ms, 2364ms total)
T46EC 005:996 JLINK_WriteReg(R3, 0x00000000)  returns 0x00 (0000ms, 2364ms total)
T46EC 005:996 JLINK_WriteReg(R4, 0x00000000)  returns 0x00 (0000ms, 2364ms total)
T46EC 005:996 JLINK_WriteReg(R5, 0x00000000)  returns 0x00 (0000ms, 2364ms total)
T46EC 005:996 JLINK_WriteReg(R6, 0x00000000)  returns 0x00 (0000ms, 2364ms total)
T46EC 005:996 JLINK_WriteReg(R7, 0x00000000)  returns 0x00 (0000ms, 2364ms total)
T46EC 005:996 JLINK_WriteReg(R8, 0x00000000)  returns 0x00 (0000ms, 2364ms total)
T46EC 005:996 JLINK_WriteReg(R9, 0x20000194)  returns 0x00 (0000ms, 2364ms total)
T46EC 005:996 JLINK_WriteReg(R10, 0x00000000)  returns 0x00 (0000ms, 2364ms total)
T46EC 005:996 JLINK_WriteReg(R11, 0x00000000)  returns 0x00 (0000ms, 2364ms total)
T46EC 005:996 JLINK_WriteReg(R12, 0x00000000)  returns 0x00 (0000ms, 2364ms total)
T46EC 005:996 JLINK_WriteReg(R13 (SP), 0x20001000)  returns 0x00 (0000ms, 2364ms total)
T46EC 005:996 JLINK_WriteReg(R14, 0x20000001)  returns 0x00 (0000ms, 2364ms total)
T46EC 005:996 JLINK_WriteReg(R15 (PC), 0x20000020)  returns 0x00 (0000ms, 2364ms total)
T46EC 005:996 JLINK_WriteReg(XPSR, 0x01000000)  returns 0x00 (0000ms, 2364ms total)
T46EC 005:996 JLINK_WriteReg(MSP, 0x20001000)  returns 0x00 (0000ms, 2364ms total)
T46EC 005:996 JLINK_WriteReg(PSP, 0x20001000)  returns 0x00 (0000ms, 2364ms total)
T46EC 005:996 JLINK_WriteReg(CFBP, 0x00000000)  returns 0x00 (0000ms, 2364ms total)
T46EC 005:996 JLINK_SetBPEx(Addr = 0x20000000, Type = 0xFFFFFFF2)  returns 0x00000004 (0000ms, 2364ms total)
T46EC 005:996 JLINK_Go() -- CPU_ReadMem(4 bytes @ 0xE0001000) (0002ms, 2366ms total)
T46EC 005:998 JLINK_IsHalted()  returns FALSE (0000ms, 2366ms total)
T46EC 006:000 JLINK_IsHalted()  returns FALSE (0000ms, 2366ms total)
T46EC 006:002 JLINK_IsHalted()  returns FALSE (0000ms, 2366ms total)
T46EC 006:004 JLINK_IsHalted()  returns FALSE (0000ms, 2366ms total)
T46EC 006:006 JLINK_IsHalted()  returns FALSE (0000ms, 2366ms total)
T46EC 006:008 JLINK_IsHalted()  returns FALSE (0000ms, 2366ms total)
T46EC 006:010 JLINK_IsHalted()  returns FALSE (0000ms, 2366ms total)
T46EC 006:012 JLINK_IsHalted() -- CPU_ReadMem(2 bytes @ 0x20000000)  returns TRUE (0002ms, 2368ms total)
T46EC 006:014 JLINK_ReadReg(R15 (PC))  returns 0x20000000 (0000ms, 2366ms total)
T46EC 006:014 JLINK_ClrBPEx(BPHandle = 0x00000004)  returns 0x00 (0000ms, 2366ms total)
T46EC 006:014 JLINK_ReadReg(R0)  returns 0x00000000 (0000ms, 2366ms total)
T46EC 006:016 JLINK_WriteReg(R0, 0x0800C000)  returns 0x00 (0000ms, 2366ms total)
T46EC 006:016 JLINK_WriteReg(R1, 0x00004000)  returns 0x00 (0000ms, 2366ms total)
T46EC 006:016 JLINK_WriteReg(R2, 0x000000FF)  returns 0x00 (0000ms, 2366ms total)
T46EC 006:016 JLINK_WriteReg(R3, 0x00000000)  returns 0x00 (0000ms, 2366ms total)
T46EC 006:016 JLINK_WriteReg(R4, 0x00000000)  returns 0x00 (0000ms, 2366ms total)
T46EC 006:016 JLINK_WriteReg(R5, 0x00000000)  returns 0x00 (0000ms, 2366ms total)
T46EC 006:016 JLINK_WriteReg(R6, 0x00000000)  returns 0x00 (0000ms, 2366ms total)
T46EC 006:016 JLINK_WriteReg(R7, 0x00000000)  returns 0x00 (0000ms, 2366ms total)
T46EC 006:016 JLINK_WriteReg(R8, 0x00000000)  returns 0x00 (0000ms, 2366ms total)
T46EC 006:016 JLINK_WriteReg(R9, 0x20000194)  returns 0x00 (0001ms, 2367ms total)
T46EC 006:017 JLINK_WriteReg(R10, 0x00000000)  returns 0x00 (0000ms, 2367ms total)
T46EC 006:017 JLINK_WriteReg(R11, 0x00000000)  returns 0x00 (0000ms, 2367ms total)
T46EC 006:017 JLINK_WriteReg(R12, 0x00000000)  returns 0x00 (0000ms, 2367ms total)
T46EC 006:017 JLINK_WriteReg(R13 (SP), 0x20001000)  returns 0x00 (0000ms, 2367ms total)
T46EC 006:017 JLINK_WriteReg(R14, 0x20000001)  returns 0x00 (0000ms, 2367ms total)
T46EC 006:017 JLINK_WriteReg(R15 (PC), 0x20000020)  returns 0x00 (0000ms, 2367ms total)
T46EC 006:017 JLINK_WriteReg(XPSR, 0x01000000)  returns 0x00 (0000ms, 2367ms total)
T46EC 006:017 JLINK_WriteReg(MSP, 0x20001000)  returns 0x00 (0000ms, 2367ms total)
T46EC 006:017 JLINK_WriteReg(PSP, 0x20001000)  returns 0x00 (0000ms, 2367ms total)
T46EC 006:017 JLINK_WriteReg(CFBP, 0x00000000)  returns 0x00 (0000ms, 2367ms total)
T46EC 006:017 JLINK_SetBPEx(Addr = 0x20000000, Type = 0xFFFFFFF2)  returns 0x00000005 (0000ms, 2367ms total)
T46EC 006:017 JLINK_Go() -- CPU_ReadMem(4 bytes @ 0xE0001000) (0001ms, 2368ms total)
T46EC 006:018 JLINK_IsHalted()  returns FALSE (0001ms, 2369ms total)
T46EC 006:021 JLINK_IsHalted()  returns FALSE (0000ms, 2368ms total)
T46EC 006:023 JLINK_IsHalted()  returns FALSE (0000ms, 2368ms total)
T46EC 006:025 JLINK_IsHalted()  returns FALSE (0000ms, 2368ms total)
T46EC 006:027 JLINK_IsHalted()  returns FALSE (0000ms, 2368ms total)
T46EC 006:029 JLINK_IsHalted()  returns FALSE (0000ms, 2368ms total)
T46EC 006:031 JLINK_IsHalted()  returns FALSE (0000ms, 2368ms total)
T46EC 006:033 JLINK_IsHalted() -- CPU_ReadMem(2 bytes @ 0x20000000)  returns TRUE (0002ms, 2370ms total)
T46EC 006:035 JLINK_ReadReg(R15 (PC))  returns 0x20000000 (0000ms, 2368ms total)
T46EC 006:035 JLINK_ClrBPEx(BPHandle = 0x00000005)  returns 0x00 (0000ms, 2368ms total)
T46EC 006:035 JLINK_ReadReg(R0)  returns 0x00000000 (0000ms, 2368ms total)
T46EC 006:036 JLINK_WriteReg(R0, 0x00000001)  returns 0x00 (0000ms, 2368ms total)
T46EC 006:036 JLINK_WriteReg(R1, 0x00004000)  returns 0x00 (0000ms, 2368ms total)
T46EC 006:036 JLINK_WriteReg(R2, 0x000000FF)  returns 0x00 (0000ms, 2368ms total)
T46EC 006:036 JLINK_WriteReg(R3, 0x00000000)  returns 0x00 (0000ms, 2368ms total)
T46EC 006:036 JLINK_WriteReg(R4, 0x00000000)  returns 0x00 (0000ms, 2368ms total)
T46EC 006:036 JLINK_WriteReg(R5, 0x00000000)  returns 0x00 (0000ms, 2368ms total)
T46EC 006:036 JLINK_WriteReg(R6, 0x00000000)  returns 0x00 (0000ms, 2368ms total)
T46EC 006:036 JLINK_WriteReg(R7, 0x00000000)  returns 0x00 (0000ms, 2368ms total)
T46EC 006:036 JLINK_WriteReg(R8, 0x00000000)  returns 0x00 (0000ms, 2368ms total)
T46EC 006:036 JLINK_WriteReg(R9, 0x20000194)  returns 0x00 (0000ms, 2368ms total)
T46EC 006:036 JLINK_WriteReg(R10, 0x00000000)  returns 0x00 (0000ms, 2368ms total)
T46EC 006:036 JLINK_WriteReg(R11, 0x00000000)  returns 0x00 (0000ms, 2368ms total)
T46EC 006:036 JLINK_WriteReg(R12, 0x00000000)  returns 0x00 (0000ms, 2368ms total)
T46EC 006:036 JLINK_WriteReg(R13 (SP), 0x20001000)  returns 0x00 (0000ms, 2368ms total)
T46EC 006:036 JLINK_WriteReg(R14, 0x20000001)  returns 0x00 (0001ms, 2369ms total)
T46EC 006:037 JLINK_WriteReg(R15 (PC), 0x2000008C)  returns 0x00 (0000ms, 2369ms total)
T46EC 006:037 JLINK_WriteReg(XPSR, 0x01000000)  returns 0x00 (0000ms, 2369ms total)
T46EC 006:037 JLINK_WriteReg(MSP, 0x20001000)  returns 0x00 (0000ms, 2369ms total)
T46EC 006:037 JLINK_WriteReg(PSP, 0x20001000)  returns 0x00 (0000ms, 2369ms total)
T46EC 006:037 JLINK_WriteReg(CFBP, 0x00000000)  returns 0x00 (0000ms, 2369ms total)
T46EC 006:037 JLINK_SetBPEx(Addr = 0x20000000, Type = 0xFFFFFFF2)  returns 0x00000006 (0000ms, 2369ms total)
T46EC 006:037 JLINK_Go() -- CPU_ReadMem(4 bytes @ 0xE0001000) (0001ms, 2370ms total)
T46EC 006:038 JLINK_IsHalted() -- CPU_ReadMem(2 bytes @ 0x20000000)  returns TRUE (0003ms, 2373ms total)
T46EC 006:041 JLINK_ReadReg(R15 (PC))  returns 0x20000000 (0000ms, 2370ms total)
T46EC 006:041 JLINK_ClrBPEx(BPHandle = 0x00000006)  returns 0x00 (0000ms, 2370ms total)
T46EC 006:041 JLINK_ReadReg(R0)  returns 0x00000000 (0000ms, 2370ms total)
T46EC 006:121 JLINK_WriteMem(0x20000000, 0x0198 Bytes, ...) - Data: 00 BE 0A E0 0D 78 2D 06 68 40 08 24 40 00 00 D3 ... -- CPU_WriteMem(408 bytes @ 0x20000000)  returns 0x198 (0002ms, 2372ms total)
T46EC 006:123 JLINK_WriteReg(R0, 0x08000000)  returns 0x00 (0000ms, 2372ms total)
T46EC 006:123 JLINK_WriteReg(R1, 0x00B71B00)  returns 0x00 (0000ms, 2372ms total)
T46EC 006:123 JLINK_WriteReg(R2, 0x00000002)  returns 0x00 (0001ms, 2373ms total)
T46EC 006:124 JLINK_WriteReg(R3, 0x00000000)  returns 0x00 (0000ms, 2373ms total)
T46EC 006:124 JLINK_WriteReg(R4, 0x00000000)  returns 0x00 (0000ms, 2373ms total)
T46EC 006:124 JLINK_WriteReg(R5, 0x00000000)  returns 0x00 (0000ms, 2373ms total)
T46EC 006:124 JLINK_WriteReg(R6, 0x00000000)  returns 0x00 (0000ms, 2373ms total)
T46EC 006:124 JLINK_WriteReg(R7, 0x00000000)  returns 0x00 (0000ms, 2373ms total)
T46EC 006:124 JLINK_WriteReg(R8, 0x00000000)  returns 0x00 (0000ms, 2373ms total)
T46EC 006:124 JLINK_WriteReg(R9, 0x20000194)  returns 0x00 (0000ms, 2373ms total)
T46EC 006:124 JLINK_WriteReg(R10, 0x00000000)  returns 0x00 (0000ms, 2373ms total)
T46EC 006:124 JLINK_WriteReg(R11, 0x00000000)  returns 0x00 (0000ms, 2373ms total)
T46EC 006:124 JLINK_WriteReg(R12, 0x00000000)  returns 0x00 (0000ms, 2373ms total)
T46EC 006:124 JLINK_WriteReg(R13 (SP), 0x20001000)  returns 0x00 (0000ms, 2373ms total)
T46EC 006:124 JLINK_WriteReg(R14, 0x20000001)  returns 0x00 (0000ms, 2373ms total)
T46EC 006:124 JLINK_WriteReg(R15 (PC), 0x2000005E)  returns 0x00 (0000ms, 2373ms total)
T46EC 006:124 JLINK_WriteReg(XPSR, 0x01000000)  returns 0x00 (0000ms, 2373ms total)
T46EC 006:124 JLINK_WriteReg(MSP, 0x20001000)  returns 0x00 (0000ms, 2373ms total)
T46EC 006:124 JLINK_WriteReg(PSP, 0x20001000)  returns 0x00 (0000ms, 2373ms total)
T46EC 006:124 JLINK_WriteReg(CFBP, 0x00000000)  returns 0x00 (0000ms, 2373ms total)
T46EC 006:124 JLINK_SetBPEx(Addr = 0x20000000, Type = 0xFFFFFFF2) -- CPU_ReadMem(2 bytes @ 0x20000000)  returns 0x00000007 (0001ms, 2374ms total)
T46EC 006:125 JLINK_Go() -- CPU_WriteMem(2 bytes @ 0x20000000) -- CPU_ReadMem(4 bytes @ 0xE0001000) (0002ms, 2376ms total)
T46EC 006:127 JLINK_IsHalted() -- CPU_ReadMem(2 bytes @ 0x20000000)  returns TRUE (0002ms, 2378ms total)
T46EC 006:129 JLINK_ReadReg(R15 (PC))  returns 0x20000000 (0001ms, 2377ms total)
T46EC 006:130 JLINK_ClrBPEx(BPHandle = 0x00000007)  returns 0x00 (0000ms, 2377ms total)
T46EC 006:130 JLINK_ReadReg(R0)  returns 0x00000000 (0000ms, 2377ms total)
T46EC 006:131 JLINK_WriteMem(0x20000198, 0x0268 Bytes, ...) - Data: E0 12 02 20 45 03 00 08 C1 38 00 08 BD 31 00 08 ... -- CPU_WriteMem(616 bytes @ 0x20000198)  returns 0x268 (0003ms, 2380ms total)
T46EC 006:134 JLINK_WriteMem(0x20000400, 0x0198 Bytes, ...) - Data: 10 B5 10 BD 00 F0 1C FA 11 46 FF F7 F5 FF 08 F0 ... -- CPU_WriteMem(408 bytes @ 0x20000400)  returns 0x198 (0002ms, 2382ms total)
T46EC 006:136 JLINK_WriteReg(R0, 0x08000000)  returns 0x00 (0000ms, 2382ms total)
T46EC 006:136 JLINK_WriteReg(R1, 0x00000400)  returns 0x00 (0000ms, 2382ms total)
T46EC 006:136 JLINK_WriteReg(R2, 0x20000198)  returns 0x00 (0000ms, 2382ms total)
T46EC 006:136 JLINK_WriteReg(R3, 0x00000000)  returns 0x00 (0000ms, 2382ms total)
T46EC 006:136 JLINK_WriteReg(R4, 0x00000000)  returns 0x00 (0000ms, 2382ms total)
T46EC 006:136 JLINK_WriteReg(R5, 0x00000000)  returns 0x00 (0000ms, 2382ms total)
T46EC 006:136 JLINK_WriteReg(R6, 0x00000000)  returns 0x00 (0000ms, 2382ms total)
T46EC 006:136 JLINK_WriteReg(R7, 0x00000000)  returns 0x00 (0000ms, 2382ms total)
T46EC 006:136 JLINK_WriteReg(R8, 0x00000000)  returns 0x00 (0000ms, 2382ms total)
T46EC 006:136 JLINK_WriteReg(R9, 0x20000194)  returns 0x00 (0000ms, 2382ms total)
T46EC 006:136 JLINK_WriteReg(R10, 0x00000000)  returns 0x00 (0000ms, 2382ms total)
T46EC 006:136 JLINK_WriteReg(R11, 0x00000000)  returns 0x00 (0000ms, 2382ms total)
T46EC 006:136 JLINK_WriteReg(R12, 0x00000000)  returns 0x00 (0000ms, 2382ms total)
T46EC 006:136 JLINK_WriteReg(R13 (SP), 0x20001000)  returns 0x00 (0000ms, 2382ms total)
T46EC 006:136 JLINK_WriteReg(R14, 0x20000001)  returns 0x00 (0000ms, 2382ms total)
T46EC 006:136 JLINK_WriteReg(R15 (PC), 0x20000120)  returns 0x00 (0000ms, 2382ms total)
T46EC 006:136 JLINK_WriteReg(XPSR, 0x01000000)  returns 0x00 (0001ms, 2383ms total)
T46EC 006:137 JLINK_WriteReg(MSP, 0x20001000)  returns 0x00 (0000ms, 2383ms total)
T46EC 006:137 JLINK_WriteReg(PSP, 0x20001000)  returns 0x00 (0000ms, 2383ms total)
T46EC 006:137 JLINK_WriteReg(CFBP, 0x00000000)  returns 0x00 (0000ms, 2383ms total)
T46EC 006:137 JLINK_SetBPEx(Addr = 0x20000000, Type = 0xFFFFFFF2)  returns 0x00000008 (0000ms, 2383ms total)
T46EC 006:137 JLINK_Go() -- CPU_ReadMem(4 bytes @ 0xE0001000) (0001ms, 2384ms total)
T46EC 006:138 JLINK_IsHalted()  returns FALSE (0001ms, 2385ms total)
T46EC 006:168 JLINK_IsHalted() -- CPU_ReadMem(2 bytes @ 0x20000000)  returns TRUE (0002ms, 2386ms total)
T46EC 006:170 JLINK_ReadReg(R15 (PC))  returns 0x20000000 (0000ms, 2384ms total)
T46EC 006:170 JLINK_ClrBPEx(BPHandle = 0x00000008)  returns 0x00 (0000ms, 2384ms total)
T46EC 006:170 JLINK_ReadReg(R0)  returns 0x00000000 (0000ms, 2384ms total)
T46EC 006:173 JLINK_WriteMem(0x20000198, 0x0268 Bytes, ...) - Data: 00 00 00 44 54 C7 00 08 DF ED 19 0A B5 EE C0 0A ... -- CPU_WriteMem(616 bytes @ 0x20000198)  returns 0x268 (0002ms, 2386ms total)
T46EC 006:175 JLINK_WriteMem(0x20000400, 0x0198 Bytes, ...) - Data: 00 48 70 47 80 0E 02 20 1F B5 84 B0 00 20 0A 9C ... -- CPU_WriteMem(408 bytes @ 0x20000400)  returns 0x198 (0002ms, 2388ms total)
T46EC 006:177 JLINK_WriteReg(R0, 0x08000400)  returns 0x00 (0000ms, 2388ms total)
T46EC 006:177 JLINK_WriteReg(R1, 0x00000400)  returns 0x00 (0000ms, 2388ms total)
T46EC 006:177 JLINK_WriteReg(R2, 0x20000198)  returns 0x00 (0000ms, 2388ms total)
T46EC 006:177 JLINK_WriteReg(R3, 0x00000000)  returns 0x00 (0000ms, 2388ms total)
T46EC 006:177 JLINK_WriteReg(R4, 0x00000000)  returns 0x00 (0000ms, 2388ms total)
T46EC 006:177 JLINK_WriteReg(R5, 0x00000000)  returns 0x00 (0000ms, 2388ms total)
T46EC 006:177 JLINK_WriteReg(R6, 0x00000000)  returns 0x00 (0000ms, 2388ms total)
T46EC 006:177 JLINK_WriteReg(R7, 0x00000000)  returns 0x00 (0000ms, 2388ms total)
T46EC 006:177 JLINK_WriteReg(R8, 0x00000000)  returns 0x00 (0000ms, 2388ms total)
T46EC 006:177 JLINK_WriteReg(R9, 0x20000194)  returns 0x00 (0000ms, 2388ms total)
T46EC 006:177 JLINK_WriteReg(R10, 0x00000000)  returns 0x00 (0000ms, 2388ms total)
T46EC 006:177 JLINK_WriteReg(R11, 0x00000000)  returns 0x00 (0000ms, 2388ms total)
T46EC 006:177 JLINK_WriteReg(R12, 0x00000000)  returns 0x00 (0000ms, 2388ms total)
T46EC 006:177 JLINK_WriteReg(R13 (SP), 0x20001000)  returns 0x00 (0001ms, 2389ms total)
T46EC 006:178 JLINK_WriteReg(R14, 0x20000001)  returns 0x00 (0000ms, 2389ms total)
T46EC 006:178 JLINK_WriteReg(R15 (PC), 0x20000120)  returns 0x00 (0000ms, 2389ms total)
T46EC 006:178 JLINK_WriteReg(XPSR, 0x01000000)  returns 0x00 (0000ms, 2389ms total)
T46EC 006:178 JLINK_WriteReg(MSP, 0x20001000)  returns 0x00 (0000ms, 2389ms total)
T46EC 006:178 JLINK_WriteReg(PSP, 0x20001000)  returns 0x00 (0000ms, 2389ms total)
T46EC 006:178 JLINK_WriteReg(CFBP, 0x00000000)  returns 0x00 (0000ms, 2389ms total)
T46EC 006:178 JLINK_SetBPEx(Addr = 0x20000000, Type = 0xFFFFFFF2)  returns 0x00000009 (0000ms, 2389ms total)
T46EC 006:178 JLINK_Go() -- CPU_ReadMem(4 bytes @ 0xE0001000) (0001ms, 2390ms total)
T46EC 006:179 JLINK_IsHalted()  returns FALSE (0001ms, 2391ms total)
T46EC 006:186 JLINK_IsHalted() -- CPU_ReadMem(2 bytes @ 0x20000000)  returns TRUE (0002ms, 2392ms total)
T46EC 006:188 JLINK_ReadReg(R15 (PC))  returns 0x20000000 (0000ms, 2390ms total)
T46EC 006:188 JLINK_ClrBPEx(BPHandle = 0x00000009)  returns 0x00 (0000ms, 2390ms total)
T46EC 006:188 JLINK_ReadReg(R0)  returns 0x00000000 (0000ms, 2390ms total)
T46EC 006:190 JLINK_WriteMem(0x20000198, 0x0268 Bytes, ...) - Data: 0A 20 AF F3 00 80 08 B5 69 46 8D F8 00 00 03 20 ... -- CPU_WriteMem(616 bytes @ 0x20000198)  returns 0x268 (0002ms, 2392ms total)
T46EC 006:192 JLINK_WriteMem(0x20000400, 0x0198 Bytes, ...) - Data: 97 0A B0 EE 40 9A 9F ED 95 0A F0 EE 40 BA 9F ED ... -- CPU_WriteMem(408 bytes @ 0x20000400)  returns 0x198 (0002ms, 2394ms total)
T46EC 006:194 JLINK_WriteReg(R0, 0x08000800)  returns 0x00 (0000ms, 2394ms total)
T46EC 006:194 JLINK_WriteReg(R1, 0x00000400)  returns 0x00 (0000ms, 2394ms total)
T46EC 006:194 JLINK_WriteReg(R2, 0x20000198)  returns 0x00 (0000ms, 2394ms total)
T46EC 006:194 JLINK_WriteReg(R3, 0x00000000)  returns 0x00 (0000ms, 2394ms total)
T46EC 006:194 JLINK_WriteReg(R4, 0x00000000)  returns 0x00 (0000ms, 2394ms total)
T46EC 006:194 JLINK_WriteReg(R5, 0x00000000)  returns 0x00 (0000ms, 2394ms total)
T46EC 006:194 JLINK_WriteReg(R6, 0x00000000)  returns 0x00 (0001ms, 2395ms total)
T46EC 006:195 JLINK_WriteReg(R7, 0x00000000)  returns 0x00 (0000ms, 2395ms total)
T46EC 006:195 JLINK_WriteReg(R8, 0x00000000)  returns 0x00 (0000ms, 2395ms total)
T46EC 006:195 JLINK_WriteReg(R9, 0x20000194)  returns 0x00 (0000ms, 2395ms total)
T46EC 006:195 JLINK_WriteReg(R10, 0x00000000)  returns 0x00 (0000ms, 2395ms total)
T46EC 006:195 JLINK_WriteReg(R11, 0x00000000)  returns 0x00 (0000ms, 2395ms total)
T46EC 006:195 JLINK_WriteReg(R12, 0x00000000)  returns 0x00 (0000ms, 2395ms total)
T46EC 006:195 JLINK_WriteReg(R13 (SP), 0x20001000)  returns 0x00 (0000ms, 2395ms total)
T46EC 006:195 JLINK_WriteReg(R14, 0x20000001)  returns 0x00 (0000ms, 2395ms total)
T46EC 006:195 JLINK_WriteReg(R15 (PC), 0x20000120)  returns 0x00 (0000ms, 2395ms total)
T46EC 006:195 JLINK_WriteReg(XPSR, 0x01000000)  returns 0x00 (0000ms, 2395ms total)
T46EC 006:195 JLINK_WriteReg(MSP, 0x20001000)  returns 0x00 (0000ms, 2395ms total)
T46EC 006:195 JLINK_WriteReg(PSP, 0x20001000)  returns 0x00 (0000ms, 2395ms total)
T46EC 006:195 JLINK_WriteReg(CFBP, 0x00000000)  returns 0x00 (0000ms, 2395ms total)
T46EC 006:195 JLINK_SetBPEx(Addr = 0x20000000, Type = 0xFFFFFFF2)  returns 0x0000000A (0000ms, 2395ms total)
T46EC 006:195 JLINK_Go() -- CPU_ReadMem(4 bytes @ 0xE0001000) (0001ms, 2396ms total)
T46EC 006:196 JLINK_IsHalted()  returns FALSE (0001ms, 2397ms total)
T46EC 006:199 JLINK_IsHalted()  returns FALSE (0000ms, 2396ms total)
T46EC 006:201 JLINK_IsHalted()  returns FALSE (0000ms, 2396ms total)
T46EC 006:203 JLINK_IsHalted() -- CPU_ReadMem(2 bytes @ 0x20000000)  returns TRUE (0002ms, 2398ms total)
T46EC 006:205 JLINK_ReadReg(R15 (PC))  returns 0x20000000 (0000ms, 2396ms total)
T46EC 006:205 JLINK_ClrBPEx(BPHandle = 0x0000000A)  returns 0x00 (0000ms, 2396ms total)
T46EC 006:205 JLINK_ReadReg(R0)  returns 0x00000000 (0000ms, 2396ms total)
T46EC 006:207 JLINK_WriteMem(0x20000198, 0x0268 Bytes, ...) - Data: 95 ED 00 0A B5 EE C0 0A F1 EE 10 FA 0D D1 95 ED ... -- CPU_WriteMem(616 bytes @ 0x20000198)  returns 0x268 (0002ms, 2398ms total)
T46EC 006:209 JLINK_WriteMem(0x20000400, 0x0198 Bytes, ...) - Data: 60 1C C4 B2 04 2C EC DB 28 46 08 F0 59 FD 01 20 ... -- CPU_WriteMem(408 bytes @ 0x20000400)  returns 0x198 (0002ms, 2400ms total)
T46EC 006:211 JLINK_WriteReg(R0, 0x08000C00)  returns 0x00 (0000ms, 2400ms total)
T46EC 006:211 JLINK_WriteReg(R1, 0x00000400)  returns 0x00 (0000ms, 2400ms total)
T46EC 006:211 JLINK_WriteReg(R2, 0x20000198)  returns 0x00 (0000ms, 2400ms total)
T46EC 006:211 JLINK_WriteReg(R3, 0x00000000)  returns 0x00 (0000ms, 2400ms total)
T46EC 006:211 JLINK_WriteReg(R4, 0x00000000)  returns 0x00 (0000ms, 2400ms total)
T46EC 006:211 JLINK_WriteReg(R5, 0x00000000)  returns 0x00 (0000ms, 2400ms total)
T46EC 006:211 JLINK_WriteReg(R6, 0x00000000)  returns 0x00 (0000ms, 2400ms total)
T46EC 006:211 JLINK_WriteReg(R7, 0x00000000)  returns 0x00 (0000ms, 2400ms total)
T46EC 006:211 JLINK_WriteReg(R8, 0x00000000)  returns 0x00 (0000ms, 2400ms total)
T46EC 006:211 JLINK_WriteReg(R9, 0x20000194)  returns 0x00 (0000ms, 2400ms total)
T46EC 006:212 JLINK_WriteReg(R10, 0x00000000)  returns 0x00 (0000ms, 2401ms total)
T46EC 006:212 JLINK_WriteReg(R11, 0x00000000)  returns 0x00 (0000ms, 2401ms total)
T46EC 006:212 JLINK_WriteReg(R12, 0x00000000)  returns 0x00 (0000ms, 2401ms total)
T46EC 006:212 JLINK_WriteReg(R13 (SP), 0x20001000)  returns 0x00 (0000ms, 2401ms total)
T46EC 006:212 JLINK_WriteReg(R14, 0x20000001)  returns 0x00 (0000ms, 2401ms total)
T46EC 006:212 JLINK_WriteReg(R15 (PC), 0x20000120)  returns 0x00 (0000ms, 2401ms total)
T46EC 006:212 JLINK_WriteReg(XPSR, 0x01000000)  returns 0x00 (0000ms, 2401ms total)
T46EC 006:212 JLINK_WriteReg(MSP, 0x20001000)  returns 0x00 (0000ms, 2401ms total)
T46EC 006:212 JLINK_WriteReg(PSP, 0x20001000)  returns 0x00 (0000ms, 2401ms total)
T46EC 006:212 JLINK_WriteReg(CFBP, 0x00000000)  returns 0x00 (0000ms, 2401ms total)
T46EC 006:212 JLINK_SetBPEx(Addr = 0x20000000, Type = 0xFFFFFFF2)  returns 0x0000000B (0000ms, 2401ms total)
T46EC 006:212 JLINK_Go() -- CPU_ReadMem(4 bytes @ 0xE0001000) (0001ms, 2402ms total)
T46EC 006:214 JLINK_IsHalted()  returns FALSE (0000ms, 2402ms total)
T46EC 006:216 JLINK_IsHalted()  returns FALSE (0000ms, 2402ms total)
T46EC 006:218 JLINK_IsHalted()  returns FALSE (0000ms, 2402ms total)
T46EC 006:220 JLINK_IsHalted() -- CPU_ReadMem(2 bytes @ 0x20000000)  returns TRUE (0002ms, 2404ms total)
T46EC 006:222 JLINK_ReadReg(R15 (PC))  returns 0x20000000 (0000ms, 2402ms total)
T46EC 006:222 JLINK_ClrBPEx(BPHandle = 0x0000000B)  returns 0x00 (0000ms, 2402ms total)
T46EC 006:222 JLINK_ReadReg(R0)  returns 0x00000000 (0000ms, 2402ms total)
T46EC 006:223 JLINK_WriteMem(0x20000198, 0x0268 Bytes, ...) - Data: 01 22 02 21 0B 48 00 F0 79 FA 14 20 8D F8 00 00 ... -- CPU_WriteMem(616 bytes @ 0x20000198)  returns 0x268 (0003ms, 2405ms total)
T46EC 006:226 JLINK_WriteMem(0x20000400, 0x0198 Bytes, ...) - Data: 24 E0 B1 F5 80 3F 12 D0 B1 F5 00 3F 28 D1 11 E0 ... -- CPU_WriteMem(408 bytes @ 0x20000400)  returns 0x198 (0001ms, 2406ms total)
T46EC 006:228 JLINK_WriteReg(R0, 0x08001000)  returns 0x00 (0000ms, 2406ms total)
T46EC 006:228 JLINK_WriteReg(R1, 0x00000400)  returns 0x00 (0000ms, 2406ms total)
T46EC 006:228 JLINK_WriteReg(R2, 0x20000198)  returns 0x00 (0000ms, 2406ms total)
T46EC 006:228 JLINK_WriteReg(R3, 0x00000000)  returns 0x00 (0000ms, 2406ms total)
T46EC 006:228 JLINK_WriteReg(R4, 0x00000000)  returns 0x00 (0000ms, 2406ms total)
T46EC 006:228 JLINK_WriteReg(R5, 0x00000000)  returns 0x00 (0000ms, 2406ms total)
T46EC 006:228 JLINK_WriteReg(R6, 0x00000000)  returns 0x00 (0000ms, 2406ms total)
T46EC 006:228 JLINK_WriteReg(R7, 0x00000000)  returns 0x00 (0000ms, 2406ms total)
T46EC 006:228 JLINK_WriteReg(R8, 0x00000000)  returns 0x00 (0000ms, 2406ms total)
T46EC 006:228 JLINK_WriteReg(R9, 0x20000194)  returns 0x00 (0000ms, 2406ms total)
T46EC 006:228 JLINK_WriteReg(R10, 0x00000000)  returns 0x00 (0000ms, 2406ms total)
T46EC 006:228 JLINK_WriteReg(R11, 0x00000000)  returns 0x00 (0000ms, 2406ms total)
T46EC 006:228 JLINK_WriteReg(R12, 0x00000000)  returns 0x00 (0000ms, 2406ms total)
T46EC 006:228 JLINK_WriteReg(R13 (SP), 0x20001000)  returns 0x00 (0000ms, 2406ms total)
T46EC 006:228 JLINK_WriteReg(R14, 0x20000001)  returns 0x00 (0000ms, 2406ms total)
T46EC 006:228 JLINK_WriteReg(R15 (PC), 0x20000120)  returns 0x00 (0000ms, 2406ms total)
T46EC 006:228 JLINK_WriteReg(XPSR, 0x01000000)  returns 0x00 (0000ms, 2406ms total)
T46EC 006:228 JLINK_WriteReg(MSP, 0x20001000)  returns 0x00 (0000ms, 2406ms total)
T46EC 006:228 JLINK_WriteReg(PSP, 0x20001000)  returns 0x00 (0000ms, 2406ms total)
T46EC 006:228 JLINK_WriteReg(CFBP, 0x00000000)  returns 0x00 (0000ms, 2406ms total)
T46EC 006:228 JLINK_SetBPEx(Addr = 0x20000000, Type = 0xFFFFFFF2)  returns 0x0000000C (0000ms, 2406ms total)
T46EC 006:228 JLINK_Go() -- CPU_ReadMem(4 bytes @ 0xE0001000) (0002ms, 2408ms total)
T46EC 006:230 JLINK_IsHalted()  returns FALSE (0000ms, 2408ms total)
T46EC 006:232 JLINK_IsHalted()  returns FALSE (0000ms, 2408ms total)
T46EC 006:234 JLINK_IsHalted()  returns FALSE (0000ms, 2408ms total)
T46EC 006:241 JLINK_IsHalted() -- CPU_ReadMem(2 bytes @ 0x20000000)  returns TRUE (0002ms, 2410ms total)
T46EC 006:243 JLINK_ReadReg(R15 (PC))  returns 0x20000000 (0000ms, 2408ms total)
T46EC 006:243 JLINK_ClrBPEx(BPHandle = 0x0000000C)  returns 0x00 (0000ms, 2408ms total)
T46EC 006:243 JLINK_ReadReg(R0)  returns 0x00000000 (0000ms, 2408ms total)
T46EC 006:244 JLINK_WriteMem(0x20000198, 0x0268 Bytes, ...) - Data: 24 D0 04 2D 72 D1 27 E0 10 2D 31 D0 20 2D 35 D0 ... -- CPU_WriteMem(616 bytes @ 0x20000198)  returns 0x268 (0003ms, 2411ms total)
T46EC 006:247 JLINK_WriteMem(0x20000400, 0x0198 Bytes, ...) - Data: 01 13 1B 68 03 F0 02 03 53 72 00 F5 D8 73 03 EB ... -- CPU_WriteMem(408 bytes @ 0x20000400)  returns 0x198 (0002ms, 2413ms total)
T46EC 006:249 JLINK_WriteReg(R0, 0x08001400)  returns 0x00 (0000ms, 2413ms total)
T46EC 006:249 JLINK_WriteReg(R1, 0x00000400)  returns 0x00 (0000ms, 2413ms total)
T46EC 006:249 JLINK_WriteReg(R2, 0x20000198)  returns 0x00 (0000ms, 2413ms total)
T46EC 006:249 JLINK_WriteReg(R3, 0x00000000)  returns 0x00 (0000ms, 2413ms total)
T46EC 006:249 JLINK_WriteReg(R4, 0x00000000)  returns 0x00 (0000ms, 2413ms total)
T46EC 006:249 JLINK_WriteReg(R5, 0x00000000)  returns 0x00 (0000ms, 2413ms total)
T46EC 006:249 JLINK_WriteReg(R6, 0x00000000)  returns 0x00 (0000ms, 2413ms total)
T46EC 006:249 JLINK_WriteReg(R7, 0x00000000)  returns 0x00 (0000ms, 2413ms total)
T46EC 006:249 JLINK_WriteReg(R8, 0x00000000)  returns 0x00 (0000ms, 2413ms total)
T46EC 006:249 JLINK_WriteReg(R9, 0x20000194)  returns 0x00 (0000ms, 2413ms total)
T46EC 006:249 JLINK_WriteReg(R10, 0x00000000)  returns 0x00 (0000ms, 2413ms total)
T46EC 006:249 JLINK_WriteReg(R11, 0x00000000)  returns 0x00 (0000ms, 2413ms total)
T46EC 006:249 JLINK_WriteReg(R12, 0x00000000)  returns 0x00 (0000ms, 2413ms total)
T46EC 006:249 JLINK_WriteReg(R13 (SP), 0x20001000)  returns 0x00 (0001ms, 2414ms total)
T46EC 006:250 JLINK_WriteReg(R14, 0x20000001)  returns 0x00 (0000ms, 2414ms total)
T46EC 006:250 JLINK_WriteReg(R15 (PC), 0x20000120)  returns 0x00 (0000ms, 2414ms total)
T46EC 006:250 JLINK_WriteReg(XPSR, 0x01000000)  returns 0x00 (0000ms, 2414ms total)
T46EC 006:250 JLINK_WriteReg(MSP, 0x20001000)  returns 0x00 (0000ms, 2414ms total)
T46EC 006:250 JLINK_WriteReg(PSP, 0x20001000)  returns 0x00 (0000ms, 2414ms total)
T46EC 006:250 JLINK_WriteReg(CFBP, 0x00000000)  returns 0x00 (0000ms, 2414ms total)
T46EC 006:250 JLINK_SetBPEx(Addr = 0x20000000, Type = 0xFFFFFFF2)  returns 0x0000000D (0000ms, 2414ms total)
T46EC 006:250 JLINK_Go() -- CPU_ReadMem(4 bytes @ 0xE0001000) (0001ms, 2415ms total)
T46EC 006:251 JLINK_IsHalted()  returns FALSE (0001ms, 2416ms total)
T46EC 006:254 JLINK_IsHalted()  returns FALSE (0000ms, 2415ms total)
T46EC 006:256 JLINK_IsHalted() -- CPU_ReadMem(2 bytes @ 0x20000000)  returns TRUE (0002ms, 2417ms total)
T46EC 006:258 JLINK_ReadReg(R15 (PC))  returns 0x20000000 (0000ms, 2415ms total)
T46EC 006:258 JLINK_ClrBPEx(BPHandle = 0x0000000D)  returns 0x00 (0000ms, 2415ms total)
T46EC 006:258 JLINK_ReadReg(R0)  returns 0x00000000 (0000ms, 2415ms total)
T46EC 006:259 JLINK_WriteMem(0x20000198, 0x0268 Bytes, ...) - Data: 8B 7C 1C 06 4B 7C 44 EA 03 44 0B 7C 44 EA 03 23 ... -- CPU_WriteMem(616 bytes @ 0x20000198)  returns 0x268 (0003ms, 2418ms total)
T46EC 006:262 JLINK_WriteMem(0x20000400, 0x0198 Bytes, ...) - Data: 06 48 10 38 01 F0 00 53 1B B1 06 4B 0B 40 C3 60 ... -- CPU_WriteMem(408 bytes @ 0x20000400)  returns 0x198 (0002ms, 2420ms total)
T46EC 006:264 JLINK_WriteReg(R0, 0x08001800)  returns 0x00 (0000ms, 2420ms total)
T46EC 006:264 JLINK_WriteReg(R1, 0x00000400)  returns 0x00 (0000ms, 2420ms total)
T46EC 006:264 JLINK_WriteReg(R2, 0x20000198)  returns 0x00 (0000ms, 2420ms total)
T46EC 006:264 JLINK_WriteReg(R3, 0x00000000)  returns 0x00 (0000ms, 2420ms total)
T46EC 006:264 JLINK_WriteReg(R4, 0x00000000)  returns 0x00 (0000ms, 2420ms total)
T46EC 006:264 JLINK_WriteReg(R5, 0x00000000)  returns 0x00 (0000ms, 2420ms total)
T46EC 006:264 JLINK_WriteReg(R6, 0x00000000)  returns 0x00 (0000ms, 2420ms total)
T46EC 006:264 JLINK_WriteReg(R7, 0x00000000)  returns 0x00 (0000ms, 2420ms total)
T46EC 006:264 JLINK_WriteReg(R8, 0x00000000)  returns 0x00 (0000ms, 2420ms total)
T46EC 006:264 JLINK_WriteReg(R9, 0x20000194)  returns 0x00 (0000ms, 2420ms total)
T46EC 006:264 JLINK_WriteReg(R10, 0x00000000)  returns 0x00 (0000ms, 2420ms total)
T46EC 006:264 JLINK_WriteReg(R11, 0x00000000)  returns 0x00 (0000ms, 2420ms total)
T46EC 006:264 JLINK_WriteReg(R12, 0x00000000)  returns 0x00 (0000ms, 2420ms total)
T46EC 006:264 JLINK_WriteReg(R13 (SP), 0x20001000)  returns 0x00 (0000ms, 2420ms total)
T46EC 006:264 JLINK_WriteReg(R14, 0x20000001)  returns 0x00 (0000ms, 2420ms total)
T46EC 006:264 JLINK_WriteReg(R15 (PC), 0x20000120)  returns 0x00 (0000ms, 2420ms total)
T46EC 006:264 JLINK_WriteReg(XPSR, 0x01000000)  returns 0x00 (0000ms, 2420ms total)
T46EC 006:264 JLINK_WriteReg(MSP, 0x20001000)  returns 0x00 (0001ms, 2421ms total)
T46EC 006:265 JLINK_WriteReg(PSP, 0x20001000)  returns 0x00 (0000ms, 2421ms total)
T46EC 006:265 JLINK_WriteReg(CFBP, 0x00000000)  returns 0x00 (0000ms, 2421ms total)
T46EC 006:265 JLINK_SetBPEx(Addr = 0x20000000, Type = 0xFFFFFFF2)  returns 0x0000000E (0000ms, 2421ms total)
T46EC 006:265 JLINK_Go() -- CPU_ReadMem(4 bytes @ 0xE0001000) (0001ms, 2422ms total)
T46EC 006:266 JLINK_IsHalted()  returns FALSE (0001ms, 2423ms total)
T46EC 006:269 JLINK_IsHalted()  returns FALSE (0000ms, 2422ms total)
T46EC 006:271 JLINK_IsHalted() -- CPU_ReadMem(2 bytes @ 0x20000000)  returns TRUE (0002ms, 2424ms total)
T46EC 006:273 JLINK_ReadReg(R15 (PC))  returns 0x20000000 (0000ms, 2422ms total)
T46EC 006:273 JLINK_ClrBPEx(BPHandle = 0x0000000E)  returns 0x00 (0000ms, 2422ms total)
T46EC 006:273 JLINK_ReadReg(R0)  returns 0x00000000 (0000ms, 2422ms total)
T46EC 006:274 JLINK_WriteMem(0x20000198, 0x0268 Bytes, ...) - Data: 21 B1 02 68 42 F4 80 22 02 60 03 E0 02 68 22 F4 ... -- CPU_WriteMem(616 bytes @ 0x20000198)  returns 0x268 (0003ms, 2425ms total)
T46EC 006:277 JLINK_WriteMem(0x20000400, 0x0198 Bytes, ...) - Data: C4 00 11 46 01 EB 80 00 00 68 04 EB C4 01 02 EB ... -- CPU_WriteMem(408 bytes @ 0x20000400)  returns 0x198 (0002ms, 2427ms total)
T46EC 006:279 JLINK_WriteReg(R0, 0x08001C00)  returns 0x00 (0000ms, 2427ms total)
T46EC 006:279 JLINK_WriteReg(R1, 0x00000400)  returns 0x00 (0000ms, 2427ms total)
T46EC 006:279 JLINK_WriteReg(R2, 0x20000198)  returns 0x00 (0000ms, 2427ms total)
T46EC 006:279 JLINK_WriteReg(R3, 0x00000000)  returns 0x00 (0000ms, 2427ms total)
T46EC 006:279 JLINK_WriteReg(R4, 0x00000000)  returns 0x00 (0000ms, 2427ms total)
T46EC 006:279 JLINK_WriteReg(R5, 0x00000000)  returns 0x00 (0000ms, 2427ms total)
T46EC 006:279 JLINK_WriteReg(R6, 0x00000000)  returns 0x00 (0000ms, 2427ms total)
T46EC 006:279 JLINK_WriteReg(R7, 0x00000000)  returns 0x00 (0000ms, 2427ms total)
T46EC 006:279 JLINK_WriteReg(R8, 0x00000000)  returns 0x00 (0000ms, 2427ms total)
T46EC 006:279 JLINK_WriteReg(R9, 0x20000194)  returns 0x00 (0000ms, 2427ms total)
T46EC 006:280 JLINK_WriteReg(R10, 0x00000000)  returns 0x00 (0000ms, 2428ms total)
T46EC 006:280 JLINK_WriteReg(R11, 0x00000000)  returns 0x00 (0000ms, 2428ms total)
T46EC 006:280 JLINK_WriteReg(R12, 0x00000000)  returns 0x00 (0000ms, 2428ms total)
T46EC 006:280 JLINK_WriteReg(R13 (SP), 0x20001000)  returns 0x00 (0000ms, 2428ms total)
T46EC 006:280 JLINK_WriteReg(R14, 0x20000001)  returns 0x00 (0000ms, 2428ms total)
T46EC 006:280 JLINK_WriteReg(R15 (PC), 0x20000120)  returns 0x00 (0000ms, 2428ms total)
T46EC 006:280 JLINK_WriteReg(XPSR, 0x01000000)  returns 0x00 (0000ms, 2428ms total)
T46EC 006:280 JLINK_WriteReg(MSP, 0x20001000)  returns 0x00 (0000ms, 2428ms total)
T46EC 006:280 JLINK_WriteReg(PSP, 0x20001000)  returns 0x00 (0000ms, 2428ms total)
T46EC 006:280 JLINK_WriteReg(CFBP, 0x00000000)  returns 0x00 (0000ms, 2428ms total)
T46EC 006:280 JLINK_SetBPEx(Addr = 0x20000000, Type = 0xFFFFFFF2)  returns 0x0000000F (0000ms, 2428ms total)
T46EC 006:280 JLINK_Go() -- CPU_ReadMem(4 bytes @ 0xE0001000) (0002ms, 2430ms total)
T46EC 006:282 JLINK_IsHalted()  returns FALSE (0000ms, 2430ms total)
T46EC 006:287 JLINK_IsHalted() -- CPU_ReadMem(2 bytes @ 0x20000000)  returns TRUE (0002ms, 2432ms total)
T46EC 006:289 JLINK_ReadReg(R15 (PC))  returns 0x20000000 (0000ms, 2430ms total)
T46EC 006:289 JLINK_ClrBPEx(BPHandle = 0x0000000F)  returns 0x00 (0000ms, 2430ms total)
T46EC 006:289 JLINK_ReadReg(R0)  returns 0x00000000 (0000ms, 2430ms total)
T46EC 006:290 JLINK_WriteMem(0x20000198, 0x0268 Bytes, ...) - Data: 20 01 20 31 00 EB C0 02 03 EB 82 02 D1 74 00 EB ... -- CPU_WriteMem(616 bytes @ 0x20000198)  returns 0x268 (0003ms, 2433ms total)
T46EC 006:293 JLINK_WriteMem(0x20000400, 0x0198 Bytes, ...) - Data: 40 00 04 EB C4 01 34 4A 02 EB 81 01 C8 74 04 EB ... -- CPU_WriteMem(408 bytes @ 0x20000400)  returns 0x198 (0002ms, 2435ms total)
T46EC 006:295 JLINK_WriteReg(R0, 0x08002000)  returns 0x00 (0000ms, 2435ms total)
T46EC 006:295 JLINK_WriteReg(R1, 0x00000400)  returns 0x00 (0000ms, 2435ms total)
